Title: * .step'ed log file data
Date: N/A
Plotname: unknown
Flags: real forward
No. Variables: 6
No. Points: 6
Offset:   0.0000000000000000e+000
Command: Linear Technology Corporation LTspice IV
Variables:
	0	vin	step
	1	vg1	unknown
	2	va	unknown
	3	ia	unknown
	4	nfb	unknown
	5	pow	unknown
Values:
0		5.000000000000000e-002
	2.734980000000000e+000
	1.027700000000000e+001
	4.671360000000000e-005
	1.149830000000000e+001
	0.000000000000000e+000
1		1.000000000000000e-001
	5.519190000000000e+000
	2.050490000000000e+001
	9.320410000000000e-005
	1.139970000000000e+001
	3.160120000000000e-001
2		1.500000000000000e-001
	8.410050000000000e+000
	3.062620000000000e+001
	1.392100000000000e-004
	1.122590000000000e+001
	5.309940000000000e-001
3		2.000000000000000e-001
	1.149550000000000e+001
	4.057570000000000e+001
	1.844350000000000e-004
	1.095480000000000e+001
	5.856880000000000e-001
4		2.500000000000000e-001
	1.496010000000000e+001
	5.023030000000000e+001
	2.283190000000000e-004
	1.052060000000000e+001
	6.136460000000000e-001
5		3.000000000000000e-001
	1.848210000000000e+001
	5.970580000000000e+001
	2.713900000000000e-004
	1.018530000000000e+001
	6.310280000000000e-001
